
T156C 000:708 SEGGER J-Link V4.36l Log File (0007ms, 0707ms total)
T156C 000:708 DLL Compiled: Dec  2 2011 18:52:36 (0009ms, 0707ms total)
T156C 000:708 Logging started @ 2012-02-17 13:27 (0010ms, 0707ms total)
T156C 000:719 JLINK_SetWarnOutHandler(...) (0001ms, 0718ms total)
T156C 000:721 JLINK_OpenEx(...)
Firmware: J-Link ARM V8 compiled Sep 22 2011 16:23:23
Hardware: V8.00
S/N: 58003272  returns O.K. (0172ms, 0720ms total)
T156C 000:895 JLINK_SetErrorOutHandler(...) (0003ms, 0893ms total)
T156C 000:900 JLINK_ExecCommand("Device = TMS570LS20216", ...)
                JLINK_ExecCommand("map ram 0x08000000 - 0x0801FFFF", ...)  returns 0x00 (0000ms, 0001ms total)
                JLINK_AddMirrorAreaEx(Addr = 0x00000000, Size = 0x00000000) (0001ms, 0001ms total)
              Device "TMS570LS20216" selected (2048 KB flash, 128 KB RAM).  returns 0x00 (0008ms, 0897ms total)
T156C 000:911 JLINK_ExecCommand("ProjectFile = "\\dta0918455d\Disk_D\Data\570_Software\Cortex R DSP Library_2_0_0\Examples\arm_fir_example\ARM\JLinkSettings.ini"", ...)  returns 0x00 (0007ms, 0906ms total)
T156C 000:918 JLINK_ExecCommand("DisableConnectionTimeout", ...)  returns 0x00 (0001ms, 0914ms total)
T156C 000:920 JLINK_SetEndian(ARM_ENDIAN_BIG)  returns 0x00 (0001ms, 0915ms total)
T156C 000:921 JLINK_TIF_Select(JLINKARM_TIF_JTAG)  returns 0x00 (0001ms, 0916ms total)
T156C 000:922 JLINK_SetSpeed(2000) (0001ms, 0917ms total)
T156C 000:923 JLINK_GetHardwareVersion()  returns 0x13880 (0001ms, 0918ms total)
T156C 000:924 JLINK_GetDLLVersion()  returns 43612 (0001ms, 0919ms total)
T156C 000:925 JLINK_GetFirmwareString(...) (0000ms, 0920ms total)
T156C 000:926 JLINK_GetDLLVersion()  returns 43612 (0000ms, 0921ms total)
T156C 000:927 JLINK_GetCompileDateTime() (0000ms, 0922ms total)
T156C 000:927 JLINK_GetFirmwareString(...) (0001ms, 0922ms total)
T156C 000:928 JLINK_GetHardwareVersion()  returns 0x13880 (0001ms, 0923ms total)
T156C 000:929 JLINK_GetIdData(...) >0x2F8 JTAG>TotalIRLen = 6, IRPrint = 0x01 >0x30 JTAG> >0x210 JTAG>Found TI ICEPick. Enabling device at position 0. >0x5C JTAG> >0x38 JTAG> >0x38 JTAG> >0x48 JTAG> >0x30 JTAG> >0x30 JTAG> >0x48 JTAG> >0x48 JTAG> >0x48 JTAG>ARM AP[0]: 0x14770001, AHB-AP >0x48 JTAG> >0x48 JTAG> >0x48 JTAG>ARM AP[1]: 0x04770002, APB-AP >0x48 JTAG> >0x48 JTAG> >0x48 JTAG>ARM AP[2]: 0x14760010, JTAG-AP >0x48 JTAG> >0x48 JTAG> >0x48 JTAG> >0x88 JTAG> >0x48 JTAG> >0x48 JTAG> >0x48 JTAG>
 >0x48 JTAG> >0x30 JTAG> >0x30 JTAG> >0x30 JTAG> >0x30 JTAG> >0x30 JTAG> >0x30 JTAG> >0x48 JTAG> >0x48 JTAG> >0x30 JTAG> >0x30 JTAG> >0x48 JTAG> >0x48 JTAG> >0x48 JTAG> >0x30 JTAG> >0x30 JTAG> >0x30 JTAG> >0x30 JTAG> >0x30 JTAG> >0x30 JTAG> >0x48 JTAG> >0x48 JTAG> >0x30 JTAG> >0x30 JTAG> >0x30 JTAG> >0x30 JTAG> >0x30 JTAG> >0x30 JTAG> >0x30 JTAG> >0x30 JTAG> >0x30 JTAG> >0x30 JTAG> >0x48 JTAG> >0x48 JTAG> >0x30 JTAG> >0x30 JTAG> >0x48 JTAG>Found Cortex-R4 r1p26 code breakpoints, 2 data breakpoints
 >0x48 JTAG> >0x48 JTAG> >0x30 JTAG> >0x30 JTAG> >0x30 JTAG> >0x48 JTAG> >0x30 JTAG> >0x88 JTAG> >0x48 JTAG> >0x30 JTAG> >0x30 JTAG> >0x48 JTAG> >0x48 JTAG> >0x48 JTAG> >0x30 JTAG> >0x30 JTAG> >0x30 JTAG> >0x48 JTAG> >0x30 JTAG> >0x88 JTAG> >0x48 JTAG> >0x30 JTAG> >0x30 JTAG> >0x48 JTAG> >0x48 JTAG> >0x48 JTAG> >0x30 JTAG> >0x30 JTAG> >0x48 JTAG> >0x48 JTAG> >0x48 JTAG> >0x30 JTAG> >0x48 JTAG> >0x48 JTAG> >0x30 JTAG> >0x48 JTAG> >0x48 JTAG> >0x30 JTAG> >0x48 JTAG> >0x48 JTAG> >0x48 JTAG> >0x48 JTAG>
 >0x30 JTAG> >0x48 JTAG> >0x48 JTAG> >0x30 JTAG> >0x30 JTAG> >0x30 JTAG> >0x30 JTAG> >0x38 JTAG> >0x30 JTAG> >0x30 JTAG> >0x30 JTAG> >0x30 JTAG> >0x30 JTAG> >0x30 JTAG> >0x30 JTAG> >0x38 JTAG> >0x30 JTAG> >0x30 JTAG> >0x30 JTAG> >0x38 JTAG> >0x30 JTAG> >0x30 JTAG> >0x30 JTAG> >0x30 JTAG> >0x30 JTAG> >0x30 JTAG> >0x30 JTAG> >0x38 JTAG> >0x30 JTAG> >0x30 JTAG> >0x30 JTAG> >0x38 JTAG> >0x30 JTAG> >0x30 JTAG> >0x30 JTAG> >0x30 JTAG> >0x30 JTAG>Data endian: big >0x48 JTAG> >0x48 JTAG> >0x30 JTAG> >0x48 JTAG>
 >0x48 JTAG> >0x30 JTAG> >0x38 JTAG> >0x30 JTAG> >0x30 JTAG> >0x30 JTAG> >0x38 JTAG> >0x30 JTAG> >0x30 JTAG> >0x30 JTAG> >0x30 JTAG>Main ID register: 0x411FC142 >0x48 JTAG> >0x48 JTAG> >0x30 JTAG> >0x48 JTAG> >0x48 JTAG> >0x30 JTAG> >0x38 JTAG> >0x30 JTAG> >0x30 JTAG> >0x30 JTAG> >0x38 JTAG> >0x30 JTAG> >0x30 JTAG> >0x30 JTAG> >0x30 JTAG>Cache Type register: 0x8003C003 >0x48 JTAG> >0x48 JTAG> >0x30 JTAG> >0x48 JTAG> >0x48 JTAG> >0x30 JTAG> >0x38 JTAG> >0x30 JTAG> >0x30 JTAG> >0x30 JTAG> >0x38 JTAG>
 >0x30 JTAG> >0x30 JTAG> >0x30 JTAG> >0x30 JTAG>TCM Type register: 0x00010001 >0x48 JTAG> >0x48 JTAG> >0x30 JTAG> >0x48 JTAG> >0x48 JTAG> >0x30 JTAG> >0x38 JTAG> >0x30 JTAG> >0x30 JTAG> >0x30 JTAG> >0x38 JTAG> >0x30 JTAG> >0x30 JTAG> >0x30 JTAG> >0x30 JTAG>MPU Type register: 0x00000800 >0x48 JTAG> >0x48 JTAG> >0x30 JTAG> >0x48 JTAG> >0x48 JTAG> >0x30 JTAG> >0x38 JTAG> >0x30 JTAG> >0x30 JTAG> >0x30 JTAG> >0x38 JTAG> >0x30 JTAG> >0x30 JTAG> >0x30 JTAG> >0x30 JTAG>System control register:
  Instruction endian: big  Level-1 instruction cache disabled  Level-1 data cache disabled  MPU enabled  Branch prediction supported >0x48 JTAG> >0x48 JTAG> >0x30 JTAG> >0x48 JTAG> >0x48 JTAG> >0x30 JTAG> >0x30 JTAG> >0x30 JTAG> >0x38 JTAG> >0x30 JTAG> >0x30 JTAG> >0x30 JTAG> >0x38 JTAG> >0x30 JTAG> >0x30 JTAG> >0x30 JTAG> >0x38 JTAG> >0x30 JTAG> >0x30 JTAG> >0x30 JTAG> >0x30 JTAG> >0x30 JTAG> >0x38 JTAG> >0x30 JTAG> >0x30 JTAG> >0x30 JTAG> >0x38 JTAG> >0x30 JTAG> >0x30 JTAG> >0x30 JTAG> >0x30 JTAG>
 >0x30 JTAG> >0x38 JTAG> >0x30 JTAG> >0x30 JTAG> >0x30 JTAG> >0x30 JTAG> >0x48 JTAG> >0x48 JTAG> >0x30 JTAG> >0x48 JTAG> >0x48 JTAG> >0x48 JTAG> >0x48 JTAG> >0x30 JTAG> >0x48 JTAG> >0x48 JTAG> ScanLen=10 NumDevices=2 aId[0]=0x1BA00477 aIrRead[0]=0 aScanLen[0]=4 aScanRead[0]=0 (0246ms, 0924ms total)
T156C 001:176 JLINK_JTAG_GetDeviceID(DeviceIndex = 0)  returns 0x1BA00477 (0001ms, 1170ms total)
T156C 001:177 JLINK_JTAG_GetDeviceInfo(DeviceIndex = 0)  returns 0x00 (0002ms, 1171ms total)
T156C 001:179 JLINK_JTAG_GetDeviceID(DeviceIndex = 1)  returns 0xB7B302F (0001ms, 1173ms total)
T156C 001:180 JLINK_JTAG_GetDeviceInfo(DeviceIndex = 1)  returns 0x00 (0002ms, 1174ms total)
T156C 001:182 JLINK_GetDebugInfo(0x100) -- Value=0x80000000  returns 0x00 (0002ms, 1176ms total)
T156C 001:184 JLINK_GetDeviceFamily()  returns 12 (0001ms, 1178ms total)
T156C 001:186 JLINK_SetResetType(JLINKARM_RESET_TYPE_NORMAL)  returns JLINKARM_RESET_TYPE_NORMAL (0001ms, 1180ms total)
T156C 001:187 JLINK_Reset() >0x2F8 JTAG>TotalIRLen = 6, IRPrint = 0x01 >0x30 JTAG> >0x210 JTAG>Found TI ICEPick. Enabling device at position 0. >0x5C JTAG> >0x38 JTAG> >0x38 JTAG> >0x48 JTAG> >0x30 JTAG> >0x30 JTAG> >0x48 JTAG> >0x48 JTAG> >0x48 JTAG>ARM AP[0]: 0x14770001, AHB-AP >0x48 JTAG> >0x48 JTAG> >0x48 JTAG>ARM AP[1]: 0x04770002, APB-AP >0x48 JTAG> >0x48 JTAG> >0x48 JTAG>ARM AP[2]: 0x14760010, JTAG-AP >0x48 JTAG> >0x48 JTAG> >0x48 JTAG> >0x88 JTAG> >0x48 JTAG> >0x48 JTAG> >0x48 JTAG> >0x48 JTAG>
 >0x30 JTAG> >0x30 JTAG> >0x30 JTAG> >0x30 JTAG> >0x30 JTAG> >0x30 JTAG> >0x48 JTAG> >0x48 JTAG> >0x30 JTAG> >0x30 JTAG> >0x48 JTAG> >0x48 JTAG> >0x48 JTAG> >0x30 JTAG> >0x30 JTAG> >0x30 JTAG> >0x30 JTAG> >0x30 JTAG> >0x30 JTAG> >0x48 JTAG> >0x48 JTAG> >0x30 JTAG> >0x30 JTAG> >0x30 JTAG> >0x30 JTAG> >0x30 JTAG> >0x30 JTAG> >0x30 JTAG> >0x30 JTAG> >0x30 JTAG> >0x30 JTAG> >0x48 JTAG> >0x48 JTAG> >0x30 JTAG> >0x30 JTAG> >0x48 JTAG>Found Cortex-R4 r1p26 code breakpoints, 2 data breakpoints >0x48 JTAG>
 >0x48 JTAG> >0x30 JTAG> >0x30 JTAG> >0x30 JTAG> >0x48 JTAG> >0x30 JTAG> >0x88 JTAG> >0x48 JTAG> >0x30 JTAG> >0x30 JTAG> >0x48 JTAG> >0x48 JTAG> >0x48 JTAG> >0x30 JTAG> >0x30 JTAG> >0x30 JTAG> >0x48 JTAG> >0x30 JTAG> >0x88 JTAG> >0x48 JTAG> >0x30 JTAG> >0x30 JTAG> >0x48 JTAG> >0x48 JTAG> >0x48 JTAG> >0x30 JTAG> >0x30 JTAG> >0x48 JTAG> >0x48 JTAG> >0x48 JTAG> >0x30 JTAG> >0x48 JTAG> >0x48 JTAG> >0x30 JTAG> >0x48 JTAG> >0x48 JTAG> >0x30 JTAG> >0x48 JTAG> >0x48 JTAG> >0x48 JTAG> >0x48 JTAG> >0x30 JTAG>
 >0x48 JTAG> >0x48 JTAG> >0x30 JTAG> >0x30 JTAG> >0x30 JTAG> >0x30 JTAG> >0x38 JTAG> >0x30 JTAG> >0x30 JTAG> >0x30 JTAG> >0x30 JTAG> >0x30 JTAG> >0x30 JTAG> >0x30 JTAG> >0x38 JTAG> >0x30 JTAG> >0x30 JTAG> >0x30 JTAG> >0x38 JTAG> >0x30 JTAG> >0x30 JTAG> >0x30 JTAG> >0x30 JTAG> >0x30 JTAG> >0x30 JTAG> >0x30 JTAG> >0x38 JTAG> >0x30 JTAG> >0x30 JTAG> >0x30 JTAG> >0x38 JTAG> >0x30 JTAG> >0x30 JTAG> >0x30 JTAG> >0x30 JTAG> >0x30 JTAG>Data endian: big >0x48 JTAG> >0x48 JTAG> >0x30 JTAG> >0x48 JTAG> >0x48 JTAG>
 >0x30 JTAG> >0x38 JTAG> >0x30 JTAG> >0x30 JTAG> >0x30 JTAG> >0x38 JTAG> >0x30 JTAG> >0x30 JTAG> >0x30 JTAG> >0x30 JTAG>Main ID register: 0x411FC142 >0x48 JTAG> >0x48 JTAG> >0x30 JTAG> >0x48 JTAG> >0x48 JTAG> >0x30 JTAG> >0x38 JTAG> >0x30 JTAG> >0x30 JTAG> >0x30 JTAG> >0x38 JTAG> >0x30 JTAG> >0x30 JTAG> >0x30 JTAG> >0x30 JTAG>Cache Type register: 0x8003C003 >0x48 JTAG> >0x48 JTAG> >0x30 JTAG> >0x48 JTAG> >0x48 JTAG> >0x30 JTAG> >0x38 JTAG> >0x30 JTAG> >0x30 JTAG> >0x30 JTAG> >0x38 JTAG> >0x30 JTAG>
 >0x30 JTAG> >0x30 JTAG> >0x30 JTAG>TCM Type register: 0x00010001 >0x48 JTAG> >0x48 JTAG> >0x30 JTAG> >0x48 JTAG> >0x48 JTAG> >0x30 JTAG> >0x38 JTAG> >0x30 JTAG> >0x30 JTAG> >0x30 JTAG> >0x38 JTAG> >0x30 JTAG> >0x30 JTAG> >0x30 JTAG> >0x30 JTAG>MPU Type register: 0x00000800 >0x48 JTAG> >0x48 JTAG> >0x30 JTAG> >0x48 JTAG> >0x48 JTAG> >0x30 JTAG> >0x38 JTAG> >0x30 JTAG> >0x30 JTAG> >0x30 JTAG> >0x38 JTAG> >0x30 JTAG> >0x30 JTAG> >0x30 JTAG> >0x30 JTAG>System control register:  Instruction endian: big
  Level-1 instruction cache disabled  Level-1 data cache disabled  MPU enabled  Branch prediction supported >0x48 JTAG> >0x48 JTAG> >0x30 JTAG> >0x48 JTAG> >0x48 JTAG> >0x30 JTAG> >0x30 JTAG> >0x30 JTAG> >0x38 JTAG> >0x30 JTAG> >0x30 JTAG> >0x30 JTAG> >0x38 JTAG> >0x30 JTAG> >0x30 JTAG> >0x30 JTAG> >0x38 JTAG> >0x30 JTAG> >0x30 JTAG> >0x30 JTAG> >0x30 JTAG> >0x30 JTAG> >0x38 JTAG> >0x30 JTAG> >0x30 JTAG> >0x30 JTAG> >0x38 JTAG> >0x30 JTAG> >0x30 JTAG> >0x30 JTAG> >0x30 JTAG> >0x30 JTAG> >0x38 JTAG>
 >0x30 JTAG> >0x30 JTAG> >0x30 JTAG> >0x30 JTAG> >0x48 JTAG> >0x48 JTAG> >0x30 JTAG> >0x48 JTAG> >0x48 JTAG> >0x48 JTAG> >0x48 JTAG> >0x30 JTAG> >0x48 JTAG> >0x58 JTAG> >0x48 JTAG> >0x30 JTAG> >0x48 JTAG> >0x48 JTAG> >0x30 JTAG> >0x30 JTAG> >0x2F8 JTAG>TotalIRLen = 6, IRPrint = 0x01 >0x30 JTAG> >0x210 JTAG>Found TI ICEPick. Enabling device at position 0. >0x5C JTAG> >0x38 JTAG> >0x38 JTAG> >0x48 JTAG> >0x30 JTAG> >0x30 JTAG> >0x48 JTAG> >0x48 JTAG> >0x48 JTAG>ARM AP[0]: 0x14770001, AHB-AP >0x48 JTAG>
 >0x48 JTAG> >0x48 JTAG>ARM AP[1]: 0x04770002, APB-AP >0x48 JTAG> >0x48 JTAG> >0x48 JTAG>ARM AP[2]: 0x14760010, JTAG-AP >0x48 JTAG> >0x48 JTAG> >0x48 JTAG> >0x88 JTAG> >0x48 JTAG> >0x48 JTAG> >0x48 JTAG> >0x48 JTAG> >0x30 JTAG> >0x30 JTAG> >0x30 JTAG> >0x30 JTAG> >0x30 JTAG> >0x30 JTAG> >0x48 JTAG> >0x48 JTAG> >0x30 JTAG> >0x30 JTAG> >0x48 JTAG> >0x48 JTAG> >0x48 JTAG> >0x30 JTAG> >0x30 JTAG> >0x30 JTAG> >0x30 JTAG> >0x30 JTAG> >0x30 JTAG> >0x48 JTAG> >0x48 JTAG> >0x30 JTAG> >0x30 JTAG> >0x30 JTAG>
 >0x30 JTAG> >0x30 JTAG> >0x30 JTAG> >0x30 JTAG> >0x30 JTAG> >0x30 JTAG> >0x30 JTAG> >0x48 JTAG> >0x48 JTAG> >0x30 JTAG> >0x30 JTAG> >0x48 JTAG>Found Cortex-R4 r1p26 code breakpoints, 2 data breakpoints >0x48 JTAG> >0x48 JTAG> >0x30 JTAG> >0x30 JTAG> >0x30 JTAG> >0x48 JTAG> >0x30 JTAG> >0x88 JTAG> >0x48 JTAG> >0x30 JTAG> >0x30 JTAG> >0x48 JTAG> >0x48 JTAG> >0x48 JTAG> >0x30 JTAG> >0x30 JTAG> >0x30 JTAG> >0x48 JTAG> >0x30 JTAG> >0x88 JTAG> >0x48 JTAG> >0x30 JTAG> >0x30 JTAG> >0x48 JTAG> >0x48 JTAG>
 >0x48 JTAG> >0x30 JTAG> >0x30 JTAG> >0x48 JTAG> >0x48 JTAG> >0x48 JTAG> >0x30 JTAG> >0x48 JTAG> >0x48 JTAG> >0x30 JTAG> >0x48 JTAG> >0x48 JTAG> >0x30 JTAG> >0x48 JTAG> >0x48 JTAG> >0x48 JTAG> >0x48 JTAG> >0x30 JTAG> >0x48 JTAG> >0x48 JTAG> >0x30 JTAG> >0x30 JTAG> >0x30 JTAG> >0x30 JTAG> >0x38 JTAG> >0x30 JTAG> >0x30 JTAG> >0x30 JTAG> >0x30 JTAG> >0x30 JTAG> >0x30 JTAG> >0x30 JTAG> >0x38 JTAG> >0x30 JTAG> >0x30 JTAG> >0x30 JTAG> >0x38 JTAG> >0x30 JTAG> >0x30 JTAG> >0x30 JTAG> >0x30 JTAG> >0x30 JTAG>
 >0x30 JTAG> >0x30 JTAG> >0x38 JTAG> >0x30 JTAG> >0x30 JTAG> >0x30 JTAG> >0x38 JTAG> >0x30 JTAG> >0x30 JTAG> >0x30 JTAG> >0x30 JTAG> >0x30 JTAG>Data endian: big >0x48 JTAG> >0x48 JTAG> >0x30 JTAG> >0x48 JTAG> >0x48 JTAG> >0x30 JTAG> >0x38 JTAG> >0x30 JTAG> >0x30 JTAG> >0x30 JTAG> >0x38 JTAG> >0x30 JTAG> >0x30 JTAG> >0x30 JTAG> >0x30 JTAG>Main ID register: 0x411FC142 >0x48 JTAG> >0x48 JTAG> >0x30 JTAG> >0x48 JTAG> >0x48 JTAG> >0x30 JTAG> >0x38 JTAG> >0x30 JTAG> >0x30 JTAG> >0x30 JTAG> >0x38 JTAG>
 >0x30 JTAG> >0x30 JTAG> >0x30 JTAG> >0x30 JTAG>Cache Type register: 0x8003C003 >0x48 JTAG> >0x48 JTAG> >0x30 JTAG> >0x48 JTAG> >0x48 JTAG> >0x30 JTAG> >0x38 JTAG> >0x30 JTAG> >0x30 JTAG> >0x30 JTAG> >0x38 JTAG> >0x30 JTAG> >0x30 JTAG> >0x30 JTAG> >0x30 JTAG>TCM Type register: 0x00010001 >0x48 JTAG> >0x48 JTAG> >0x30 JTAG> >0x48 JTAG> >0x48 JTAG> >0x30 JTAG> >0x38 JTAG> >0x30 JTAG> >0x30 JTAG> >0x30 JTAG> >0x38 JTAG> >0x30 JTAG> >0x30 JTAG> >0x30 JTAG> >0x30 JTAG>MPU Type register: 0x00000800 >0x48 JTAG>
 >0x48 JTAG> >0x30 JTAG> >0x48 JTAG> >0x48 JTAG> >0x30 JTAG> >0x38 JTAG> >0x30 JTAG> >0x30 JTAG> >0x30 JTAG> >0x38 JTAG> >0x30 JTAG> >0x30 JTAG> >0x30 JTAG> >0x30 JTAG>System control register:  Instruction endian: big  Level-1 instruction cache disabled  Level-1 data cache disabled  MPU enabled  Branch prediction supported >0x48 JTAG> >0x48 JTAG> >0x30 JTAG> >0x48 JTAG> >0x48 JTAG> >0x30 JTAG> >0x30 JTAG> >0x30 JTAG> >0x38 JTAG> >0x30 JTAG> >0x30 JTAG> >0x30 JTAG> >0x38 JTAG> >0x30 JTAG> >0x30 JTAG>
 >0x30 JTAG> >0x38 JTAG> >0x30 JTAG> >0x30 JTAG> >0x30 JTAG> >0x30 JTAG> >0x30 JTAG> >0x38 JTAG> >0x30 JTAG> >0x30 JTAG> >0x30 JTAG> >0x38 JTAG> >0x30 JTAG> >0x30 JTAG> >0x30 JTAG> >0x30 JTAG> >0x30 JTAG> >0x38 JTAG> >0x30 JTAG> >0x30 JTAG> >0x30 JTAG> >0x30 JTAG> >0x48 JTAG> >0x48 JTAG> >0x30 JTAG> >0x48 JTAG> >0x48 JTAG> >0x48 JTAG> >0x48 JTAG> >0x30 JTAG> >0x48 JTAG> >0x58 JTAG> >0x48 JTAG> >0x30 JTAG> >0x30 JTAG> >0x30 JTAG> >0x48 JTAG> >0x30 JTAG> >0x88 JTAG> >0x48 JTAG> >0x30 JTAG> >0x30 JTAG>
 >0x30 JTAG> >0x48 JTAG> >0x30 JTAG> >0xA0 JTAG> >0x4A JTAG> >0x48 JTAG> >0x48 JTAG> >0x30 JTAG> >0x30 JTAG> >0x30 JTAG> >0x48 JTAG> >0x30 JTAG> (0593ms, 1181ms total)
T156C 001:780 JLINK_ReadReg(R15 (PC))  returns 0x00000000 (0001ms, 1774ms total)
T156C 001:781 JLINK_ReadReg(CPSR)  returns 0x000003D3 (0001ms, 1775ms total)
T156C 001:783 JLINK_ReadReg(SPSR_FIQ)  returns 0x08002A00 (0005ms, 1777ms total)
T156C 001:788 JLINK_ReadReg(SPSR_IRQ)  returns 0x00000213 (0003ms, 1782ms total)
T156C 001:791 JLINK_ReadReg(SPSR_SVC)  returns 0x00000213 (0003ms, 1785ms total)
T156C 001:795 JLINK_ReadReg(SPSR_ABT)  returns 0x08003400 (0003ms, 1789ms total)
T156C 001:798 JLINK_ReadReg(SPSR_UND)  returns 0x08003900 (0004ms, 1792ms total)
T156C 001:802 JLINK_Halt()  returns 0x00 (0001ms, 1796ms total)
T156C 001:803 JLINK_IsHalted()  returns TRUE (0002ms, 1797ms total)
T156C 001:805 JLINK_ReadReg(R0)  returns 0x00000213 (0001ms, 1797ms total)
T156C 001:806 JLINK_ReadReg(R1)  returns 0x000002D3 (0002ms, 1798ms total)
T156C 001:808 JLINK_ReadReg(R2)  returns 0x02020202 (0001ms, 1800ms total)
T156C 001:809 JLINK_ReadReg(R3)  returns 0x03030303 (0002ms, 1801ms total)
T156C 001:811 JLINK_ReadReg(R4)  returns 0x04040404 (0001ms, 1803ms total)
T156C 001:812 JLINK_ReadReg(R5)  returns 0x05050505 (0002ms, 1804ms total)
T156C 001:814 JLINK_ReadReg(R6)  returns 0x06060606 (0001ms, 1806ms total)
T156C 001:815 JLINK_ReadReg(R7)  returns 0x07070707 (0002ms, 1807ms total)
T156C 001:817 JLINK_ReadReg(R15 (PC))  returns 0x00000000 (0001ms, 1809ms total)
T156C 001:818 JLINK_ReadReg(CPSR)  returns 0x000003D3 (0002ms, 1810ms total)
T156C 001:820 JLINK_ReadReg(R8_USR)  returns 0x08080808 (0003ms, 1812ms total)
T156C 001:824 JLINK_ReadReg(R9_USR)  returns 0x09090909 (0001ms, 1816ms total)
T156C 001:825 JLINK_ReadReg(R10_USR)  returns 0x10101010 (0002ms, 1817ms total)
T156C 001:827 JLINK_ReadReg(R11_USR)  returns 0x11111111 (0001ms, 1819ms total)
T156C 001:828 JLINK_ReadReg(R12_USR)  returns 0x0002316E (0002ms, 1820ms total)
T156C 001:830 JLINK_ReadReg(R13_USR)  returns 0x08005600 (0001ms, 1822ms total)
T156C 001:831 JLINK_ReadReg(R14_USR)  returns 0x000031A0 (0002ms, 1823ms total)
T156C 001:833 JLINK_ReadReg(R8_FIQ)  returns 0x00000000 (0001ms, 1825ms total)
T156C 001:834 JLINK_ReadReg(R9_FIQ)  returns 0x00000000 (0002ms, 1826ms total)
T156C 001:837 JLINK_ReadReg(R10_FIQ)  returns 0x00000000 (0001ms, 1829ms total)
T156C 001:838 JLINK_ReadReg(R11_FIQ)  returns 0x00000000 (0001ms, 1830ms total)
T156C 001:840 JLINK_ReadReg(R12_FIQ)  returns 0x00000000 (0001ms, 1832ms total)
T156C 001:841 JLINK_ReadReg(R13_FIQ)  returns 0x08002A00 (0001ms, 1833ms total)
T156C 001:843 JLINK_ReadReg(R14_FIQ)  returns 0x0000E320 (0001ms, 1835ms total)
T156C 001:844 JLINK_ReadReg(SPSR_FIQ)  returns 0x08002A00 (0001ms, 1836ms total)
T156C 001:846 JLINK_ReadReg(R13_IRQ)  returns 0x08002F00 (0001ms, 1838ms total)
T156C 001:847 JLINK_ReadReg(R14_IRQ)  returns 0x000031BC (0001ms, 1839ms total)
T156C 001:849 JLINK_ReadReg(SPSR_IRQ)  returns 0x00000213 (0001ms, 1841ms total)
T156C 001:850 JLINK_ReadReg(R13_SVC)  returns 0x08005600 (0001ms, 1842ms total)
T156C 001:852 JLINK_ReadReg(R14_SVC)  returns 0x000031C0 (0001ms, 1844ms total)
T156C 001:853 JLINK_ReadReg(SPSR_SVC)  returns 0x00000213 (0001ms, 1845ms total)
T156C 001:855 JLINK_ReadReg(R13_ABT)  returns 0x08003400 (0001ms, 1847ms total)
T156C 001:856 JLINK_ReadReg(R14_ABT)  returns 0x0000E320 (0001ms, 1848ms total)
T156C 001:858 JLINK_ReadReg(SPSR_ABT)  returns 0x08003400 (0001ms, 1850ms total)
T156C 001:859 JLINK_ReadReg(R13_UND)  returns 0x08003900 (0001ms, 1851ms total)
T156C 001:861 JLINK_ReadReg(R14_UND)  returns 0x0000E320 (0001ms, 1853ms total)
T156C 001:862 JLINK_ReadReg(SPSR_UND)  returns 0x08003900 (0001ms, 1854ms total)
T156C 001:863 JLINK_ReadReg(FPSCR)  returns 0x08003900 (0032ms, 1855ms total)
T156C 001:896 JLINK_ReadReg(FPS0)  returns 0x08003900 (0001ms, 1887ms total)
T156C 001:897 JLINK_ReadReg(FPS1)  returns 0x08003900 (0001ms, 1888ms total)
T156C 001:899 JLINK_ReadReg(FPS2)  returns 0x08003900 (0001ms, 1890ms total)
T156C 001:900 JLINK_ReadReg(FPS3)  returns 0x08003900 (0001ms, 1891ms total)
T156C 001:902 JLINK_ReadReg(FPS4)  returns 0x08003900 (0001ms, 1893ms total)
T156C 001:903 JLINK_ReadReg(FPS5)  returns 0x08003900 (0001ms, 1894ms total)
T156C 001:905 JLINK_ReadReg(FPS6)  returns 0x08003900 (0000ms, 1896ms total)
T156C 001:905 JLINK_ReadReg(FPS7)  returns 0x08003900 (0002ms, 1896ms total)
T156C 001:907 JLINK_ReadReg(FPS8)  returns 0x08003900 (0001ms, 1898ms total)
T156C 001:909 JLINK_ReadReg(FPS9)  returns 0x08003900 (0001ms, 1900ms total)
T156C 001:910 JLINK_ReadReg(FPS10)  returns 0x08003900 (0001ms, 1901ms total)
T156C 001:912 JLINK_ReadReg(FPS11)  returns 0x08003900 (0001ms, 1903ms total)
T156C 001:913 JLINK_ReadReg(FPS12)  returns 0x08003900 (0001ms, 1904ms total)
T156C 001:915 JLINK_ReadReg(FPS13)  returns 0x08003900 (0001ms, 1906ms total)
T156C 001:916 JLINK_ReadReg(FPS14)  returns 0x08003900 (0001ms, 1907ms total)
T156C 001:918 JLINK_ReadReg(FPS15)  returns 0x08003900 (0001ms, 1909ms total)
T156C 001:919 JLINK_ReadReg(FPS16)  returns 0x08003900 (0001ms, 1910ms total)
T156C 001:921 JLINK_ReadReg(FPS17)  returns 0x08003900 (0001ms, 1912ms total)
T156C 001:922 JLINK_ReadReg(FPS18)  returns 0x08003900 (0002ms, 1913ms total)
T156C 001:924 JLINK_ReadReg(FPS19)  returns 0x08003900 (0001ms, 1915ms total)
T156C 001:925 JLINK_ReadReg(FPS20)  returns 0x08003900 (0001ms, 1916ms total)
T156C 001:927 JLINK_ReadReg(FPS21)  returns 0x08003900 (0001ms, 1918ms total)
T156C 001:928 JLINK_ReadReg(FPS22)  returns 0x08003900 (0002ms, 1919ms total)
T156C 001:930 JLINK_ReadReg(FPS23)  returns 0x08003900 (0001ms, 1921ms total)
T156C 001:931 JLINK_ReadReg(FPS24)  returns 0x08003900 (0002ms, 1922ms total)
T156C 001:933 JLINK_ReadReg(FPS25)  returns 0x08003900 (0002ms, 1924ms total)
T156C 001:935 JLINK_ReadReg(FPS26)  returns 0x08003900 (0002ms, 1926ms total)
T156C 001:937 JLINK_ReadReg(FPS27)  returns 0x08003900 (0002ms, 1928ms total)
T156C 001:939 JLINK_ReadReg(FPS28)  returns 0x08003900 (0002ms, 1930ms total)
T156C 001:941 JLINK_ReadReg(FPS29)  returns 0x08003900 (0002ms, 1932ms total)
T156C 001:943 JLINK_ReadReg(FPS30)  returns 0x08003900 (0002ms, 1934ms total)
T156C 001:945 JLINK_ReadReg(FPS31)  returns 0x08003900 (0001ms, 1936ms total)
T156C 001:947 JLINK_GetHWStatus(...)  returns 0x00 (0002ms, 1937ms total)
T156C 001:950 JLINK_GetNumBPUnits(Type = 0xFFFFFF00)  returns 0x06 (0001ms, 1939ms total)
T156C 001:952 JLINK_GetNumBPUnits(Type = 0xF0)  returns 0x2000 (0002ms, 1941ms total)
T156C 001:954 JLINK_GetNumWPUnits()  returns 0x02 (0002ms, 1943ms total)
T156C 001:957 JLINK_GetSpeed()  returns 0x7D0 (0001ms, 1945ms total)
T156C 001:959 JLINK_ReadReg(R15 (PC))  returns 0x00000000 (0001ms, 1947ms total)
T156C 001:961 JLINK_ReadReg(CPSR)  returns 0x000003D3 (0002ms, 1949ms total)
T156C 001:963 JLINK_ReadReg(SPSR_FIQ)  returns 0x08002A00 (0002ms, 1951ms total)
T156C 001:965 JLINK_ReadReg(SPSR_IRQ)  returns 0x00000213 (0002ms, 1953ms total)
T156C 001:967 JLINK_ReadReg(SPSR_SVC)  returns 0x00000213 (0002ms, 1955ms total)
T156C 001:969 JLINK_ReadReg(SPSR_ABT)  returns 0x08003400 (0002ms, 1957ms total)
T156C 001:971 JLINK_ReadReg(SPSR_UND)  returns 0x08003900 (0002ms, 1959ms total)
T156C 002:223 JLINK_WriteMem(0x08000000, 0x1000 Bytes, ...) -- Data:  E5 9F F0 18 E5 9F F0 18 E5 9F F0 18 E5 9F F0 18 ... -- CPU_WriteMem(4096 bytes @ 0x08000000)  returns 0x1000 (0034ms, 1961ms total)
T156C 004:309 JLINK_WriteMem(0x08001000, 0x059C Bytes, ...) -- Data:  8B 10 B0 02 BD 70 ED 9F 1B 52 ED 9F 0B 53 EE 28 ... -- CPU_WriteMem(1436 bytes @ 0x08001000)  returns 0x59C (0016ms, 1995ms total)
T156C 004:384 JLINK_WriteReg(R15 (PC), 0x08000000)  returns 0x00 (0002ms, 2012ms total)
T156C 004:867 JLINK_ReadReg(R0)  returns 0x00000213 (0001ms, 2014ms total)
T156C 004:868 JLINK_ReadReg(R1)  returns 0x000002D3 (0001ms, 2015ms total)
T156C 004:869 JLINK_ReadReg(R2)  returns 0x02020202 (0001ms, 2016ms total)
T156C 004:870 JLINK_ReadReg(R3)  returns 0x03030303 (0001ms, 2017ms total)
T156C 004:871 JLINK_ReadReg(R4)  returns 0x04040404 (0001ms, 2018ms total)
T156C 004:872 JLINK_ReadReg(R5)  returns 0x05050505 (0001ms, 2019ms total)
T156C 004:873 JLINK_ReadReg(R6)  returns 0x06060606 (0001ms, 2020ms total)
T156C 004:874 JLINK_ReadReg(R7)  returns 0x07070707 (0001ms, 2021ms total)
T156C 004:875 JLINK_ReadReg(R15 (PC))  returns 0x08000000 (0001ms, 2022ms total)
T156C 004:876 JLINK_ReadReg(CPSR)  returns 0x000003D3 (0001ms, 2023ms total)
T156C 004:877 JLINK_ReadReg(R8_USR)  returns 0x08080808 (0001ms, 2024ms total)
T156C 004:878 JLINK_ReadReg(R9_USR)  returns 0x09090909 (0001ms, 2025ms total)
T156C 004:879 JLINK_ReadReg(R10_USR)  returns 0x10101010 (0001ms, 2026ms total)
T156C 004:880 JLINK_ReadReg(R11_USR)  returns 0x11111111 (0001ms, 2027ms total)
T156C 004:881 JLINK_ReadReg(R12_USR)  returns 0x0002316E (0001ms, 2028ms total)
T156C 004:882 JLINK_ReadReg(R13_USR)  returns 0x08005600 (0000ms, 2029ms total)
T156C 004:883 JLINK_ReadReg(R14_USR)  returns 0x000031A0 (0000ms, 2030ms total)
T156C 004:884 JLINK_ReadReg(R8_FIQ)  returns 0x00000000 (0000ms, 2031ms total)
T156C 004:885 JLINK_ReadReg(R9_FIQ)  returns 0x00000000 (0000ms, 2032ms total)
T156C 004:886 JLINK_ReadReg(R10_FIQ)  returns 0x00000000 (0000ms, 2033ms total)
T156C 004:887 JLINK_ReadReg(R11_FIQ)  returns 0x00000000 (0000ms, 2034ms total)
T156C 004:888 JLINK_ReadReg(R12_FIQ)  returns 0x00000000 (0000ms, 2035ms total)
T156C 004:889 JLINK_ReadReg(R13_FIQ)  returns 0x08002A00 (0000ms, 2036ms total)
T156C 004:890 JLINK_ReadReg(R14_FIQ)  returns 0x0000E320 (0000ms, 2037ms total)
T156C 004:891 JLINK_ReadReg(SPSR_FIQ)  returns 0x08002A00 (0000ms, 2038ms total)
T156C 004:892 JLINK_ReadReg(R13_IRQ)  returns 0x08002F00 (0000ms, 2039ms total)
T156C 004:893 JLINK_ReadReg(R14_IRQ)  returns 0x000031BC (0000ms, 2040ms total)
T156C 004:894 JLINK_ReadReg(SPSR_IRQ)  returns 0x00000213 (0000ms, 2041ms total)
T156C 004:894 JLINK_ReadReg(R13_SVC)  returns 0x08005600 (0001ms, 2041ms total)
T156C 004:896 JLINK_ReadReg(R14_SVC)  returns 0x000031C0 (0000ms, 2043ms total)
T156C 004:897 JLINK_ReadReg(SPSR_SVC)  returns 0x00000213 (0000ms, 2044ms total)
T156C 004:898 JLINK_ReadReg(R13_ABT)  returns 0x08003400 (0000ms, 2044ms total)
T156C 004:898 JLINK_ReadReg(R14_ABT)  returns 0x0000E320 (0001ms, 2044ms total)
T156C 004:899 JLINK_ReadReg(SPSR_ABT)  returns 0x08003400 (0001ms, 2045ms total)
T156C 004:900 JLINK_ReadReg(R13_UND)  returns 0x08003900 (0001ms, 2046ms total)
T156C 004:901 JLINK_ReadReg(R14_UND)  returns 0x0000E320 (0001ms, 2047ms total)
T156C 004:902 JLINK_ReadReg(SPSR_UND)  returns 0x08003900 (0001ms, 2048ms total)
T156C 004:903 JLINK_ReadReg(FPSCR)  returns 0x08003900 (0001ms, 2049ms total)
T156C 004:904 JLINK_ReadReg(FPS0)  returns 0x08003900 (0001ms, 2050ms total)
T156C 004:905 JLINK_ReadReg(FPS1)  returns 0x08003900 (0000ms, 2051ms total)
T156C 004:905 JLINK_ReadReg(FPS2)  returns 0x08003900 (0001ms, 2051ms total)
T156C 004:906 JLINK_ReadReg(FPS3)  returns 0x08003900 (0001ms, 2052ms total)
T156C 004:907 JLINK_ReadReg(FPS4)  returns 0x08003900 (0001ms, 2053ms total)
T156C 004:908 JLINK_ReadReg(FPS5)  returns 0x08003900 (0001ms, 2054ms total)
T156C 004:909 JLINK_ReadReg(FPS6)  returns 0x08003900 (0001ms, 2055ms total)
T156C 004:910 JLINK_ReadReg(FPS7)  returns 0x08003900 (0001ms, 2056ms total)
T156C 004:911 JLINK_ReadReg(FPS8)  returns 0x08003900 (0001ms, 2057ms total)
T156C 004:912 JLINK_ReadReg(FPS9)  returns 0x08003900 (0001ms, 2058ms total)
T156C 004:913 JLINK_ReadReg(FPS10)  returns 0x08003900 (0001ms, 2059ms total)
T156C 004:914 JLINK_ReadReg(FPS11)  returns 0x08003900 (0001ms, 2060ms total)
T156C 004:915 JLINK_ReadReg(FPS12)  returns 0x08003900 (0001ms, 2061ms total)
T156C 004:916 JLINK_ReadReg(FPS13)  returns 0x08003900 (0001ms, 2062ms total)
T156C 004:917 JLINK_ReadReg(FPS14)  returns 0x08003900 (0001ms, 2063ms total)
T156C 004:918 JLINK_ReadReg(FPS15)  returns 0x08003900 (0001ms, 2064ms total)
T156C 004:919 JLINK_ReadReg(FPS16)  returns 0x08003900 (0001ms, 2065ms total)
T156C 004:920 JLINK_ReadReg(FPS17)  returns 0x08003900 (0001ms, 2066ms total)
T156C 004:921 JLINK_ReadReg(FPS18)  returns 0x08003900 (0001ms, 2067ms total)
T156C 004:922 JLINK_ReadReg(FPS19)  returns 0x08003900 (0001ms, 2068ms total)
T156C 004:923 JLINK_ReadReg(FPS20)  returns 0x08003900 (0001ms, 2069ms total)
T156C 004:924 JLINK_ReadReg(FPS21)  returns 0x08003900 (0001ms, 2070ms total)
T156C 004:925 JLINK_ReadReg(FPS22)  returns 0x08003900 (0001ms, 2071ms total)
T156C 004:926 JLINK_ReadReg(FPS23)  returns 0x08003900 (0001ms, 2072ms total)
T156C 004:927 JLINK_ReadReg(FPS24)  returns 0x08003900 (0001ms, 2073ms total)
T156C 004:928 JLINK_ReadReg(FPS25)  returns 0x08003900 (0001ms, 2074ms total)
T156C 004:929 JLINK_ReadReg(FPS26)  returns 0x08003900 (0001ms, 2075ms total)
T156C 004:930 JLINK_ReadReg(FPS27)  returns 0x08003900 (0001ms, 2076ms total)
T156C 004:931 JLINK_ReadReg(FPS28)  returns 0x08003900 (0001ms, 2077ms total)
T156C 004:932 JLINK_ReadReg(FPS29)  returns 0x08003900 (0001ms, 2078ms total)
T156C 004:933 JLINK_ReadReg(FPS30)  returns 0x08003900 (0001ms, 2079ms total)
T156C 004:934 JLINK_ReadReg(FPS31)  returns 0x08003900 (0001ms, 2080ms total)
T1584 004:965 JLINK_SetBPEx(Addr = 0x08000298, Type = 0xFFFFFFF1)  returns 0x00000001 (0001ms, 2081ms total)
T1584 004:966 JLINK_Go() >0x88 JTAG> >0x48 JTAG> >0x30 JTAG> >0x30 JTAG> >0x30 JTAG> >0x30 JTAG> >0x48 JTAG> >0x48 JTAG> >0x30 JTAG> >0x30 JTAG> >0x30 JTAG> >0x48 JTAG> >0x30 JTAG> >0x88 JTAG> >0x48 JTAG> >0x30 JTAG> >0x30 JTAG> >0x30 JTAG> >0x48 JTAG> >0x30 JTAG> >0x88 JTAG> >0x48 JTAG> >0x30 JTAG> >0x30 JTAG> >0x30 JTAG> >0x48 JTAG> >0x30 JTAG> >0x88 JTAG> >0x48 JTAG> >0x30 JTAG> >0x30 JTAG> >0x30 JTAG> >0x48 JTAG> >0x30 JTAG> >0x88 JTAG> >0x48 JTAG> >0x30 JTAG> >0x30 JTAG> >0x30 JTAG> >0x48 JTAG>
 >0x30 JTAG> (0043ms, 2082ms total)
T1584 005:110 JLINK_IsHalted()  returns TRUE (0007ms, 2125ms total)
T1584 005:117 JLINK_Halt()  returns 0x00 (0001ms, 2125ms total)
T1584 005:118 JLINK_IsHalted()  returns TRUE (0001ms, 2126ms total)
T1584 005:119 JLINK_IsHalted()  returns TRUE (0001ms, 2126ms total)
T1584 005:120 JLINK_IsHalted()  returns TRUE (0001ms, 2126ms total)
T1584 005:121 JLINK_ReadReg(R15 (PC))  returns 0x08000298 (0001ms, 2126ms total)
T1584 005:122 JLINK_ReadReg(CPSR)  returns 0x2000021F (0001ms, 2127ms total)
T1584 005:123 JLINK_ReadReg(SPSR_FIQ)  returns 0x000002D1 (0004ms, 2128ms total)
T1584 005:127 JLINK_ReadReg(SPSR_IRQ)  returns 0x000002D2 (0003ms, 2132ms total)
T1584 005:130 JLINK_ReadReg(SPSR_SVC)  returns 0x000002D3 (0002ms, 2135ms total)
T1584 005:133 JLINK_ReadReg(SPSR_ABT)  returns 0x000002D7 (0002ms, 2138ms total)
T1584 005:135 JLINK_ReadReg(SPSR_UND)  returns 0x000002DB (0003ms, 2140ms total)
T1584 005:139 JLINK_ClrBPEx(BPHandle = 0x00000001)  returns 0x00 (0000ms, 2144ms total)
T1584 005:139 JLINK_ReadMemU32(0x00000D30, 0x0001 Items, ...) -- MA0 is in flash -- Unmirror addr 0x00000D30 -- CPU_ReadMem(64 bytes @ 0x00000D00) -- Updating C cache (64 bytes @ 0x00000D00) -- Read from C cache (4 bytes @ 0x00000D30) -- Data:  03 00 00 3A  returns 0x01 (0006ms, 2144ms total)
T1584 005:147 JLINK_ReadMemU32(0x00000028, 0x0001 Items, ...) -- Unmirror addr 0x00000028 -- CPU_ReadMem(64 bytes @ 0x00000000) -- Updating C cache (64 bytes @ 0x00000000) -- Read from C cache (4 bytes @ 0x00000028) -- Data:  34 BD 00 00  returns 0x01 (0005ms, 2152ms total)
T1584 005:152 JLINK_ReadMemU32(0x00000038, 0x0001 Items, ...) -- Unmirror addr 0x00000038 -- Read from C cache (4 bytes @ 0x00000038) -- Data:  18 BF 00 00  returns 0x01 (0002ms, 2157ms total)
T1584 005:155 JLINK_ReadReg(R0)  returns 0x08009100 (0000ms, 2160ms total)
T1584 005:156 JLINK_ReadReg(R1)  returns 0x08009100 (0000ms, 2161ms total)
T1584 005:157 JLINK_ReadReg(R2)  returns 0x08009100 (0000ms, 2162ms total)
T1584 005:158 JLINK_ReadReg(R3)  returns 0x08009100 (0000ms, 2163ms total)
T1584 005:159 JLINK_ReadReg(R4)  returns 0x00000000 (0000ms, 2164ms total)
T1584 005:159 JLINK_ReadReg(R5)  returns 0x0800909C (0001ms, 2164ms total)
T1584 005:160 JLINK_ReadReg(R6)  returns 0x00000000 (0002ms, 2165ms total)
T1584 005:162 JLINK_ReadReg(R7)  returns 0x00000000 (0001ms, 2167ms total)
T1584 005:163 JLINK_ReadReg(R15 (PC))  returns 0x08000298 (0001ms, 2168ms total)
T1584 005:164 JLINK_ReadReg(CPSR)  returns 0x2000021F (0001ms, 2169ms total)
T1584 005:165 JLINK_ReadReg(R8_USR)  returns 0x00000000 (0004ms, 2170ms total)
T1584 005:169 JLINK_ReadReg(R9_USR)  returns 0x00000000 (0001ms, 2174ms total)
T1584 005:170 JLINK_ReadReg(R10_USR)  returns 0x080013F0 (0001ms, 2175ms total)
T1584 005:171 JLINK_ReadReg(R11_USR)  returns 0x00000000 (0001ms, 2176ms total)
T1584 005:172 JLINK_ReadReg(R12_USR)  returns 0x080090DC (0000ms, 2177ms total)
T1584 005:173 JLINK_ReadReg(R13_USR)  returns 0x0800A500 (0000ms, 2178ms total)
T1584 005:174 JLINK_ReadReg(R14_USR)  returns 0x08000287 (0000ms, 2179ms total)
T1584 005:175 JLINK_ReadReg(R8_FIQ)  returns 0x00000000 (0000ms, 2180ms total)
T1584 005:176 JLINK_ReadReg(R9_FIQ)  returns 0x00000000 (0000ms, 2181ms total)
T1584 005:177 JLINK_ReadReg(R10_FIQ)  returns 0x00000000 (0000ms, 2182ms total)
T1584 005:178 JLINK_ReadReg(R11_FIQ)  returns 0x00000000 (0000ms, 2183ms total)
T1584 005:178 JLINK_ReadReg(R12_FIQ)  returns 0x00000000 (0001ms, 2183ms total)
T1584 005:179 JLINK_ReadReg(R13_FIQ)  returns 0x0800A588 (0001ms, 2184ms total)
T1584 005:181 JLINK_ReadReg(R14_FIQ)  returns 0x00000000 (0000ms, 2186ms total)
T1584 005:181 JLINK_ReadReg(SPSR_FIQ)  returns 0x000002D1 (0001ms, 2186ms total)
T1584 005:182 JLINK_ReadReg(R13_IRQ)  returns 0x0800A588 (0001ms, 2187ms total)
T1584 005:183 JLINK_ReadReg(R14_IRQ)  returns 0x00000000 (0002ms, 2188ms total)
T1584 005:185 JLINK_ReadReg(SPSR_IRQ)  returns 0x000002D2 (0001ms, 2190ms total)
T1584 005:187 JLINK_ReadReg(R13_SVC)  returns 0x0800A508 (0001ms, 2192ms total)
T1584 005:189 JLINK_ReadReg(R14_SVC)  returns 0x00000000 (0001ms, 2194ms total)
T1584 005:190 JLINK_ReadReg(SPSR_SVC)  returns 0x000002D3 (0001ms, 2195ms total)
T1584 005:191 JLINK_ReadReg(R13_ABT)  returns 0x0800A588 (0001ms, 2196ms total)
T1584 005:192 JLINK_ReadReg(R14_ABT)  returns 0x00000000 (0001ms, 2197ms total)
T1584 005:194 JLINK_ReadReg(SPSR_ABT)  returns 0x000002D7 (0001ms, 2199ms total)
T1584 005:195 JLINK_ReadReg(R13_UND)  returns 0x0800A588 (0001ms, 2200ms total)
T1584 005:196 JLINK_ReadReg(R14_UND)  returns 0x00000000 (0000ms, 2201ms total)
T1584 005:197 JLINK_ReadReg(SPSR_UND)  returns 0x000002DB (0001ms, 2202ms total)
T1584 005:198 JLINK_ReadReg(FPSCR)  returns 0x03000000 (0016ms, 2203ms total)
T1584 005:214 JLINK_ReadReg(FPS0)  returns 0x00000000 (0001ms, 2219ms total)
T1584 005:215 JLINK_ReadReg(FPS1)  returns 0x00000000 (0001ms, 2220ms total)
T1584 005:216 JLINK_ReadReg(FPS2)  returns 0x00000000 (0001ms, 2221ms total)
T1584 005:217 JLINK_ReadReg(FPS3)  returns 0x00000000 (0002ms, 2222ms total)
T1584 005:219 JLINK_ReadReg(FPS4)  returns 0x00000000 (0002ms, 2224ms total)
T1584 005:221 JLINK_ReadReg(FPS5)  returns 0x00000000 (0001ms, 2226ms total)
T1584 005:223 JLINK_ReadReg(FPS6)  returns 0x00000000 (0000ms, 2228ms total)
T1584 005:224 JLINK_ReadReg(FPS7)  returns 0x00000000 (0002ms, 2229ms total)
T1584 005:226 JLINK_ReadReg(FPS8)  returns 0x00000000 (0001ms, 2231ms total)
T1584 005:227 JLINK_ReadReg(FPS9)  returns 0x00000000 (0001ms, 2232ms total)
T1584 005:228 JLINK_ReadReg(FPS10)  returns 0x00000000 (0001ms, 2233ms total)
T1584 005:229 JLINK_ReadReg(FPS11)  returns 0x00000000 (0001ms, 2234ms total)
T1584 005:230 JLINK_ReadReg(FPS12)  returns 0x00000000 (0001ms, 2235ms total)
T1584 005:231 JLINK_ReadReg(FPS13)  returns 0x00000000 (0001ms, 2236ms total)
T1584 005:232 JLINK_ReadReg(FPS14)  returns 0x00000000 (0001ms, 2237ms total)
T1584 005:233 JLINK_ReadReg(FPS15)  returns 0x00000000 (0000ms, 2238ms total)
T1584 005:234 JLINK_ReadReg(FPS16)  returns 0x00000000 (0001ms, 2239ms total)
T1584 005:235 JLINK_ReadReg(FPS17)  returns 0x00000000 (0001ms, 2240ms total)
T1584 005:236 JLINK_ReadReg(FPS18)  returns 0x00000000 (0001ms, 2241ms total)
T1584 005:237 JLINK_ReadReg(FPS19)  returns 0x00000000 (0002ms, 2242ms total)
T1584 005:239 JLINK_ReadReg(FPS20)  returns 0x00000000 (0002ms, 2244ms total)
T1584 005:241 JLINK_ReadReg(FPS21)  returns 0x00000000 (0001ms, 2246ms total)
T1584 005:242 JLINK_ReadReg(FPS22)  returns 0x00000000 (0002ms, 2247ms total)
T1584 005:244 JLINK_ReadReg(FPS23)  returns 0x00000000 (0002ms, 2249ms total)
T1584 005:246 JLINK_ReadReg(FPS24)  returns 0x00000000 (0001ms, 2251ms total)
T1584 005:247 JLINK_ReadReg(FPS25)  returns 0x00000000 (0001ms, 2252ms total)
T1584 005:248 JLINK_ReadReg(FPS26)  returns 0x00000000 (0001ms, 2253ms total)
T1584 005:249 JLINK_ReadReg(FPS27)  returns 0x00000000 (0001ms, 2254ms total)
T1584 005:250 JLINK_ReadReg(FPS28)  returns 0x00000000 (0001ms, 2255ms total)
T1584 005:251 JLINK_ReadReg(FPS29)  returns 0x00000000 (0001ms, 2256ms total)
T1584 005:253 JLINK_ReadReg(FPS30)  returns 0x00000000 (0001ms, 2258ms total)
T1584 005:255 JLINK_ReadReg(FPS31)  returns 0x00000000 (0001ms, 2260ms total)
T156C 005:310 JLINK_ReadMem (0x08008A0C, 0x00B4 Bytes, ...) -- CPU_ReadMem(192 bytes @ 0x08008A00) -- Updating C cache (192 bytes @ 0x08008A00) -- Read from C cache (180 bytes @ 0x08008A0C) -- Data:  00 00 00 00 00 00 00 00 00 00 00 00 00 00 00 00 ...  returns 0x00 (0006ms, 2261ms total)
T156C 005:316 JLINK_ReadReg(R0)  returns 0x08009100 (0001ms, 2267ms total)
T156C 005:317 JLINK_ReadReg(R1)  returns 0x08009100 (0001ms, 2268ms total)
T156C 005:318 JLINK_ReadReg(R2)  returns 0x08009100 (0001ms, 2269ms total)
T156C 005:319 JLINK_ReadReg(R3)  returns 0x08009100 (0001ms, 2270ms total)
T156C 005:320 JLINK_ReadReg(R4)  returns 0x00000000 (0001ms, 2271ms total)
T156C 005:321 JLINK_ReadReg(R5)  returns 0x0800909C (0000ms, 2272ms total)
T156C 005:321 JLINK_ReadReg(R6)  returns 0x00000000 (0001ms, 2272ms total)
T156C 005:322 JLINK_ReadReg(R7)  returns 0x00000000 (0001ms, 2273ms total)
T156C 005:323 JLINK_ReadReg(R15 (PC))  returns 0x08000298 (0001ms, 2274ms total)
T156C 005:324 JLINK_ReadReg(CPSR)  returns 0x2000021F (0001ms, 2275ms total)
T156C 005:325 JLINK_ReadReg(R8_USR)  returns 0x00000000 (0001ms, 2276ms total)
T156C 005:326 JLINK_ReadReg(R9_USR)  returns 0x00000000 (0001ms, 2277ms total)
T156C 005:327 JLINK_ReadReg(R10_USR)  returns 0x080013F0 (0001ms, 2278ms total)
T156C 005:328 JLINK_ReadReg(R11_USR)  returns 0x00000000 (0001ms, 2279ms total)
T156C 005:329 JLINK_ReadReg(R12_USR)  returns 0x080090DC (0001ms, 2280ms total)
T156C 005:330 JLINK_ReadReg(R13_USR)  returns 0x0800A500 (0001ms, 2281ms total)
T156C 005:331 JLINK_ReadReg(R14_USR)  returns 0x08000287 (0001ms, 2282ms total)
T156C 005:332 JLINK_ReadReg(R8_FIQ)  returns 0x00000000 (0001ms, 2283ms total)
T156C 005:333 JLINK_ReadReg(R9_FIQ)  returns 0x00000000 (0000ms, 2284ms total)
T156C 005:334 JLINK_ReadReg(R10_FIQ)  returns 0x00000000 (0000ms, 2285ms total)
T156C 005:335 JLINK_ReadReg(R11_FIQ)  returns 0x00000000 (0000ms, 2286ms total)
T156C 005:336 JLINK_ReadReg(R12_FIQ)  returns 0x00000000 (0000ms, 2287ms total)
T156C 005:337 JLINK_ReadReg(R13_FIQ)  returns 0x0800A588 (0000ms, 2288ms total)
T156C 005:338 JLINK_ReadReg(R14_FIQ)  returns 0x00000000 (0000ms, 2289ms total)
T156C 005:339 JLINK_ReadReg(SPSR_FIQ)  returns 0x000002D1 (0000ms, 2290ms total)
T156C 005:339 JLINK_ReadReg(R13_IRQ)  returns 0x0800A588 (0001ms, 2290ms total)
T156C 005:340 JLINK_ReadReg(R14_IRQ)  returns 0x00000000 (0001ms, 2291ms total)
T156C 005:341 JLINK_ReadReg(SPSR_IRQ)  returns 0x000002D2 (0001ms, 2292ms total)
T156C 005:343 JLINK_ReadReg(R13_SVC)  returns 0x0800A508 (0000ms, 2294ms total)
T156C 005:344 JLINK_ReadReg(R14_SVC)  returns 0x00000000 (0000ms, 2295ms total)
T156C 005:344 JLINK_ReadReg(SPSR_SVC)  returns 0x000002D3 (0001ms, 2295ms total)
T156C 005:346 JLINK_ReadReg(R13_ABT)  returns 0x0800A588 (0001ms, 2297ms total)
T156C 005:347 JLINK_ReadReg(R14_ABT)  returns 0x00000000 (0001ms, 2298ms total)
T156C 005:348 JLINK_ReadReg(SPSR_ABT)  returns 0x000002D7 (0001ms, 2299ms total)
T156C 005:349 JLINK_ReadReg(R13_UND)  returns 0x0800A588 (0001ms, 2300ms total)
T156C 005:350 JLINK_ReadReg(R14_UND)  returns 0x00000000 (0001ms, 2301ms total)
T156C 005:351 JLINK_ReadReg(SPSR_UND)  returns 0x000002DB (0000ms, 2302ms total)
T156C 005:352 JLINK_ReadReg(FPSCR)  returns 0x03000000 (0000ms, 2303ms total)
T156C 005:353 JLINK_ReadReg(FPS0)  returns 0x00000000 (0000ms, 2304ms total)
T156C 005:354 JLINK_ReadReg(FPS1)  returns 0x00000000 (0000ms, 2305ms total)
T156C 005:355 JLINK_ReadReg(FPS2)  returns 0x00000000 (0000ms, 2306ms total)
T156C 005:355 JLINK_ReadReg(FPS3)  returns 0x00000000 (0001ms, 2306ms total)
T156C 005:356 JLINK_ReadReg(FPS4)  returns 0x00000000 (0001ms, 2307ms total)
T156C 005:357 JLINK_ReadReg(FPS5)  returns 0x00000000 (0001ms, 2308ms total)
T156C 005:358 JLINK_ReadReg(FPS6)  returns 0x00000000 (0002ms, 2309ms total)
T156C 005:360 JLINK_ReadReg(FPS7)  returns 0x00000000 (0001ms, 2311ms total)
T156C 005:361 JLINK_ReadReg(FPS8)  returns 0x00000000 (0001ms, 2312ms total)
T156C 005:362 JLINK_ReadReg(FPS9)  returns 0x00000000 (0001ms, 2313ms total)
T156C 005:363 JLINK_ReadReg(FPS10)  returns 0x00000000 (0000ms, 2314ms total)
T156C 005:363 JLINK_ReadReg(FPS11)  returns 0x00000000 (0001ms, 2314ms total)
T156C 005:364 JLINK_ReadReg(FPS12)  returns 0x00000000 (0001ms, 2315ms total)
T156C 005:365 JLINK_ReadReg(FPS13)  returns 0x00000000 (0001ms, 2316ms total)
T156C 005:366 JLINK_ReadReg(FPS14)  returns 0x00000000 (0001ms, 2317ms total)
T156C 005:367 JLINK_ReadReg(FPS15)  returns 0x00000000 (0001ms, 2318ms total)
T156C 005:368 JLINK_ReadReg(FPS16)  returns 0x00000000 (0001ms, 2319ms total)
T156C 005:369 JLINK_ReadReg(FPS17)  returns 0x00000000 (0001ms, 2320ms total)
T156C 005:370 JLINK_ReadReg(FPS18)  returns 0x00000000 (0001ms, 2321ms total)
T156C 005:371 JLINK_ReadReg(FPS19)  returns 0x00000000 (0001ms, 2322ms total)
T156C 005:372 JLINK_ReadReg(FPS20)  returns 0x00000000 (0001ms, 2323ms total)
T156C 005:373 JLINK_ReadReg(FPS21)  returns 0x00000000 (0001ms, 2324ms total)
T156C 005:374 JLINK_ReadReg(FPS22)  returns 0x00000000 (0001ms, 2325ms total)
T156C 005:375 JLINK_ReadReg(FPS23)  returns 0x00000000 (0001ms, 2326ms total)
T156C 005:376 JLINK_ReadReg(FPS24)  returns 0x00000000 (0001ms, 2327ms total)
T156C 005:377 JLINK_ReadReg(FPS25)  returns 0x00000000 (0001ms, 2328ms total)
T156C 005:378 JLINK_ReadReg(FPS26)  returns 0x00000000 (0001ms, 2329ms total)
T156C 005:379 JLINK_ReadReg(FPS27)  returns 0x00000000 (0001ms, 2330ms total)
T156C 005:380 JLINK_ReadReg(FPS28)  returns 0x00000000 (0001ms, 2331ms total)
T156C 005:381 JLINK_ReadReg(FPS29)  returns 0x00000000 (0001ms, 2332ms total)
T156C 005:382 JLINK_ReadReg(FPS30)  returns 0x00000000 (0001ms, 2333ms total)
T156C 005:383 JLINK_ReadReg(FPS31)  returns 0x00000000 (0001ms, 2334ms total)
T156C 005:384 JLINK_WriteReg(R0, 0x08009100)  returns 0x00 (0001ms, 2335ms total)
T156C 005:385 JLINK_WriteReg(R1, 0x08009100)  returns 0x00 (0001ms, 2336ms total)
T156C 005:386 JLINK_WriteReg(R2, 0x08009100)  returns 0x00 (0002ms, 2337ms total)
T156C 005:388 JLINK_WriteReg(R3, 0x08009100)  returns 0x00 (0001ms, 2339ms total)
T156C 005:389 JLINK_WriteReg(R4, 0x00000000)  returns 0x00 (0001ms, 2340ms total)
T156C 005:390 JLINK_WriteReg(R5, 0x0800909C)  returns 0x00 (0001ms, 2341ms total)
T156C 005:391 JLINK_WriteReg(R6, 0x00000000)  returns 0x00 (0001ms, 2342ms total)
T156C 005:392 JLINK_WriteReg(R7, 0x00000000)  returns 0x00 (0001ms, 2343ms total)
T156C 005:393 JLINK_WriteReg(R15 (PC), 0x08000298)  returns 0x00 (0001ms, 2344ms total)
T156C 005:394 JLINK_WriteReg(CPSR, 0x2000021F)  returns 0x00 (0001ms, 2345ms total)
T156C 005:395 JLINK_WriteReg(R8_USR, 0x00000000)  returns 0x00 (0001ms, 2346ms total)
T156C 005:396 JLINK_WriteReg(R9_USR, 0x00000000)  returns 0x00 (0001ms, 2347ms total)
T156C 005:397 JLINK_WriteReg(R10_USR, 0x080013F0)  returns 0x00 (0001ms, 2348ms total)
T156C 005:398 JLINK_WriteReg(R11_USR, 0x00000000)  returns 0x00 (0001ms, 2349ms total)
T156C 005:399 JLINK_WriteReg(R12_USR, 0x080090DC)  returns 0x00 (0001ms, 2350ms total)
T156C 005:400 JLINK_WriteReg(R13_USR, 0x0800A500)  returns 0x00 (0001ms, 2351ms total)
T156C 005:401 JLINK_WriteReg(R14_USR, 0x08000287)  returns 0x00 (0001ms, 2352ms total)
T156C 005:402 JLINK_WriteReg(R8_FIQ, 0x00000000)  returns 0x00 (0001ms, 2353ms total)
T156C 005:404 JLINK_WriteReg(R9_FIQ, 0x00000000)  returns 0x00 (0000ms, 2355ms total)
T156C 005:405 JLINK_WriteReg(R10_FIQ, 0x00000000)  returns 0x00 (0000ms, 2356ms total)
T156C 005:405 JLINK_WriteReg(R11_FIQ, 0x00000000)  returns 0x00 (0000ms, 2356ms total)
T156C 005:406 JLINK_WriteReg(R12_FIQ, 0x00000000)  returns 0x00 (0000ms, 2357ms total)
T156C 005:407 JLINK_WriteReg(R13_FIQ, 0x0800A588)  returns 0x00 (0000ms, 2358ms total)
T156C 005:408 JLINK_WriteReg(R14_FIQ, 0x00000000)  returns 0x00 (0000ms, 2359ms total)
T156C 005:409 JLINK_WriteReg(SPSR_FIQ, 0x000002D1)  returns 0x00 (0000ms, 2360ms total)
T156C 005:410 JLINK_WriteReg(R13_IRQ, 0x0800A588)  returns 0x00 (0000ms, 2361ms total)
T156C 005:411 JLINK_WriteReg(R14_IRQ, 0x00000000)  returns 0x00 (0000ms, 2362ms total)
T156C 005:412 JLINK_WriteReg(SPSR_IRQ, 0x000002D2)  returns 0x00 (0000ms, 2363ms total)
T156C 005:413 JLINK_WriteReg(R13_SVC, 0x0800A500)  returns 0x00 (0000ms, 2364ms total)
T156C 005:414 JLINK_WriteReg(R14_SVC, 0x08000287)  returns 0x00 (0000ms, 2365ms total)
T156C 005:415 JLINK_WriteReg(SPSR_SVC, 0x00000213)  returns 0x00 (0000ms, 2366ms total)
T156C 005:416 JLINK_WriteReg(R13_ABT, 0x0800A588)  returns 0x00 (0000ms, 2367ms total)
T156C 005:417 JLINK_WriteReg(R14_ABT, 0x00000000)  returns 0x00 (0000ms, 2368ms total)
T156C 005:418 JLINK_WriteReg(SPSR_ABT, 0x000002D7)  returns 0x00 (0001ms, 2369ms total)
T156C 005:419 JLINK_WriteReg(R13_UND, 0x0800A588)  returns 0x00 (0001ms, 2370ms total)
T156C 005:420 JLINK_WriteReg(R14_UND, 0x00000000)  returns 0x00 (0000ms, 2371ms total)
T156C 005:421 JLINK_WriteReg(SPSR_UND, 0x000002DB)  returns 0x00 (0000ms, 2372ms total)
T156C 005:422 JLINK_ReadReg(R0)  returns 0x08009100 (0001ms, 2373ms total)
T156C 005:423 JLINK_ReadReg(R1)  returns 0x08009100 (0001ms, 2374ms total)
T156C 005:424 JLINK_ReadReg(R2)  returns 0x08009100 (0001ms, 2375ms total)
T156C 005:425 JLINK_ReadReg(R3)  returns 0x08009100 (0001ms, 2376ms total)
T156C 005:426 JLINK_ReadReg(R4)  returns 0x00000000 (0001ms, 2377ms total)
T156C 005:427 JLINK_ReadReg(R5)  returns 0x0800909C (0000ms, 2378ms total)
T156C 005:428 JLINK_ReadReg(R6)  returns 0x00000000 (0000ms, 2379ms total)
T156C 005:429 JLINK_ReadReg(R7)  returns 0x00000000 (0000ms, 2380ms total)
T156C 005:430 JLINK_ReadReg(R15 (PC))  returns 0x08000298 (0000ms, 2381ms total)
T156C 005:431 JLINK_ReadReg(CPSR)  returns 0x2000021F (0000ms, 2382ms total)
T156C 005:432 JLINK_ReadReg(R8_USR)  returns 0x00000000 (0000ms, 2383ms total)
T156C 005:433 JLINK_ReadReg(R9_USR)  returns 0x00000000 (0000ms, 2384ms total)
T156C 005:434 JLINK_ReadReg(R10_USR)  returns 0x080013F0 (0000ms, 2385ms total)
T156C 005:435 JLINK_ReadReg(R11_USR)  returns 0x00000000 (0000ms, 2386ms total)
T156C 005:436 JLINK_ReadReg(R12_USR)  returns 0x080090DC (0000ms, 2387ms total)
T156C 005:437 JLINK_ReadReg(R13_USR)  returns 0x0800A500 (0001ms, 2388ms total)
T156C 005:438 JLINK_ReadReg(R14_USR)  returns 0x08000287 (0001ms, 2389ms total)
T156C 005:440 JLINK_ReadReg(R8_FIQ)  returns 0x00000000 (0001ms, 2391ms total)
T156C 005:441 JLINK_ReadReg(R9_FIQ)  returns 0x00000000 (0001ms, 2392ms total)
T156C 005:442 JLINK_ReadReg(R10_FIQ)  returns 0x00000000 (0002ms, 2393ms total)
T156C 005:444 JLINK_ReadReg(R11_FIQ)  returns 0x00000000 (0001ms, 2395ms total)
T156C 005:445 JLINK_ReadReg(R12_FIQ)  returns 0x00000000 (0001ms, 2396ms total)
T156C 005:446 JLINK_ReadReg(R13_FIQ)  returns 0x0800A588 (0001ms, 2397ms total)
T156C 005:447 JLINK_ReadReg(R14_FIQ)  returns 0x00000000 (0001ms, 2398ms total)
T156C 005:449 JLINK_ReadReg(SPSR_FIQ)  returns 0x000002D1 (0001ms, 2400ms total)
T156C 005:450 JLINK_ReadReg(R13_IRQ)  returns 0x0800A588 (0001ms, 2401ms total)
T156C 005:451 JLINK_ReadReg(R14_IRQ)  returns 0x00000000 (0002ms, 2402ms total)
T156C 005:453 JLINK_ReadReg(SPSR_IRQ)  returns 0x000002D2 (0001ms, 2404ms total)
T156C 005:454 JLINK_ReadReg(R13_SVC)  returns 0x0800A500 (0002ms, 2405ms total)
T156C 005:456 JLINK_ReadReg(R14_SVC)  returns 0x08000287 (0001ms, 2407ms total)
T156C 005:457 JLINK_ReadReg(SPSR_SVC)  returns 0x00000213 (0002ms, 2408ms total)
T156C 005:459 JLINK_ReadReg(R13_ABT)  returns 0x0800A588 (0001ms, 2410ms total)
T156C 005:460 JLINK_ReadReg(R14_ABT)  returns 0x00000000 (0001ms, 2411ms total)
T156C 005:462 JLINK_ReadReg(SPSR_ABT)  returns 0x000002D7 (0000ms, 2413ms total)
T156C 005:463 JLINK_ReadReg(R13_UND)  returns 0x0800A588 (0000ms, 2414ms total)
T156C 005:464 JLINK_ReadReg(R14_UND)  returns 0x00000000 (0000ms, 2415ms total)
T156C 005:465 JLINK_ReadReg(SPSR_UND)  returns 0x000002DB (0001ms, 2416ms total)
T156C 005:466 JLINK_ReadReg(FPSCR)  returns 0x03000000 (0001ms, 2417ms total)
T156C 005:468 JLINK_ReadReg(FPS0)  returns 0x00000000 (0001ms, 2419ms total)
T156C 005:469 JLINK_ReadReg(FPS1)  returns 0x00000000 (0001ms, 2420ms total)
T156C 005:471 JLINK_ReadReg(FPS2)  returns 0x00000000 (0001ms, 2421ms total)
T156C 005:472 JLINK_ReadReg(FPS3)  returns 0x00000000 (0001ms, 2422ms total)
T156C 005:474 JLINK_ReadReg(FPS4)  returns 0x00000000 (0001ms, 2423ms total)
T156C 005:475 JLINK_ReadReg(FPS5)  returns 0x00000000 (0001ms, 2424ms total)
T156C 005:476 JLINK_ReadReg(FPS6)  returns 0x00000000 (0002ms, 2425ms total)
T156C 005:478 JLINK_ReadReg(FPS7)  returns 0x00000000 (0001ms, 2427ms total)
T156C 005:479 JLINK_ReadReg(FPS8)  returns 0x00000000 (0002ms, 2428ms total)
T156C 005:481 JLINK_ReadReg(FPS9)  returns 0x00000000 (0001ms, 2430ms total)
T156C 005:482 JLINK_ReadReg(FPS10)  returns 0x00000000 (0002ms, 2431ms total)
T156C 005:484 JLINK_ReadReg(FPS11)  returns 0x00000000 (0001ms, 2433ms total)
T156C 005:485 JLINK_ReadReg(FPS12)  returns 0x00000000 (0001ms, 2434ms total)
T156C 005:487 JLINK_ReadReg(FPS13)  returns 0x00000000 (0001ms, 2436ms total)
T156C 005:488 JLINK_ReadReg(FPS14)  returns 0x00000000 (0001ms, 2437ms total)
T156C 005:489 JLINK_ReadReg(FPS15)  returns 0x00000000 (0001ms, 2438ms total)
T156C 005:490 JLINK_ReadReg(FPS16)  returns 0x00000000 (0001ms, 2439ms total)
T156C 005:492 JLINK_ReadReg(FPS17)  returns 0x00000000 (0001ms, 2441ms total)
T156C 005:493 JLINK_ReadReg(FPS18)  returns 0x00000000 (0001ms, 2442ms total)
T156C 005:495 JLINK_ReadReg(FPS19)  returns 0x00000000 (0001ms, 2444ms total)
T156C 005:496 JLINK_ReadReg(FPS20)  returns 0x00000000 (0001ms, 2445ms total)
T156C 005:498 JLINK_ReadReg(FPS21)  returns 0x00000000 (0001ms, 2447ms total)
T156C 005:499 JLINK_ReadReg(FPS22)  returns 0x00000000 (0002ms, 2448ms total)
T156C 005:501 JLINK_ReadReg(FPS23)  returns 0x00000000 (0001ms, 2450ms total)
T156C 005:502 JLINK_ReadReg(FPS24)  returns 0x00000000 (0002ms, 2451ms total)
T156C 005:504 JLINK_ReadReg(FPS25)  returns 0x00000000 (0001ms, 2453ms total)
T156C 005:505 JLINK_ReadReg(FPS26)  returns 0x00000000 (0002ms, 2454ms total)
T156C 005:507 JLINK_ReadReg(FPS27)  returns 0x00000000 (0001ms, 2456ms total)
T156C 005:508 JLINK_ReadReg(FPS28)  returns 0x00000000 (0001ms, 2457ms total)
T156C 005:510 JLINK_ReadReg(FPS29)  returns 0x00000000 (0001ms, 2459ms total)
T156C 005:511 JLINK_ReadReg(FPS30)  returns 0x00000000 (0001ms, 2460ms total)
T156C 005:513 JLINK_ReadReg(FPS31)  returns 0x00000000 (0001ms, 2462ms total)
T156C 005:515 JLINK_WriteReg(R0, 0x08009100)  returns 0x00 (0001ms, 2464ms total)
T156C 005:516 JLINK_WriteReg(R1, 0x08009100)  returns 0x00 (0001ms, 2465ms total)
T156C 005:518 JLINK_WriteReg(R2, 0x08009100)  returns 0x00 (0001ms, 2467ms total)
T156C 005:519 JLINK_WriteReg(R3, 0x08009100)  returns 0x00 (0002ms, 2468ms total)
T156C 005:521 JLINK_WriteReg(R4, 0x00000000)  returns 0x00 (0001ms, 2470ms total)
